T3EEC 699:585 SEGGER J-Link V6.46 Log File (0000ms, 5236ms total)
T3EEC 699:585 DLL Compiled: May 23 2019 17:49:56 (0000ms, 5236ms total)
T3EEC 699:585 Logging started @ 2022-04-29 17:12 (0000ms, 5236ms total)
T3EEC 699:585 JLINK_SetWarnOutHandler(...) (0000ms, 5236ms total)
T3EEC 699:585 JLINK_OpenEx(...)
Firmware: J-Link V9 compiled May 17 2019 09:50:41
Hardware: V9.60
S/N: 69660629
Feature(s): RDI, GDB, FlashDL, FlashBP, JFlash
TELNET listener socket opened on port 19021WEBSRV 
Starting webserver (0052ms, 5288ms total)
T3EEC 699:585 WEBSRV Webserver running on local port 19080 (0052ms, 5288ms total)
T3EEC 699:585   returns O.K. (0052ms, 5288ms total)
T3EEC 699:637 JLINK_GetEmuCaps()  returns 0xB9FF7BBF (0000ms, 5288ms total)
T3EEC 699:638 JLINK_TIF_GetAvailable(...) (0000ms, 5288ms total)
T3EEC 699:638 JLINK_SetErrorOutHandler(...) (0000ms, 5288ms total)
T3EEC 699:638 JLINK_ExecCommand("ProjectFile = "C:\Users\Joker\Desktop\Buinding-Automation-Controller\JLinkSettings.ini"", ...).   returns 0x00 (0000ms, 5288ms total)
T3EEC 699:638 JLINK_ExecCommand("Device = STM32F407ZGTx", ...). Device "STM32F407ZG" selected.  returns 0x00 (0002ms, 5290ms total)
T3EEC 699:640 JLINK_ExecCommand("DisableConnectionTimeout", ...).   returns 0x01 (0000ms, 5290ms total)
T3EEC 699:640 JLINK_GetHardwareVersion()  returns 0x17700 (0000ms, 5290ms total)
T3EEC 699:640 JLINK_GetDLLVersion()  returns 64600 (0000ms, 5290ms total)
T3EEC 699:640 JLINK_GetFirmwareString(...) (0000ms, 5290ms total)
T3EEC 699:640 JLINK_GetDLLVersion()  returns 64600 (0000ms, 5290ms total)
T3EEC 699:640 JLINK_GetCompileDateTime() (0000ms, 5290ms total)
T3EEC 699:640 JLINK_GetFirmwareString(...) (0000ms, 5290ms total)
T3EEC 699:640 JLINK_GetHardwareVersion()  returns 0x17700 (0000ms, 5290ms total)
T3EEC 699:640 JLINK_TIF_Select(JLINKARM_TIF_SWD)  returns 0x00 (0000ms, 5290ms total)
T3EEC 699:640 JLINK_SetSpeed(5000) (0000ms, 5290ms total)
T3EEC 699:640 JLINK_GetId() >0x10B TIF>Found SW-DP with ID 0x2BA01477 >0x0D TIF> >0x28 TIF> >0x0D TIF> >0x28 TIF> >0x0D TIF> >0x28 TIF> >0x0D TIF> >0x28 TIF> >0x0D TIF> >0x21 TIF> >0x0D TIF> >0x28 TIF> >0x0D TIF> >0x28 TIF> >0x0D TIF> >0x28 TIF> >0x0D TIF> >0x21 TIF> >0x0D TIF> >0x21 TIF> >0x0D TIF> >0x28 TIF> >0x0D TIF> >0x21 TIF> >0x0D TIF> >0x21 TIF> >0x0D TIF> >0x28 TIF> >0x0D TIF> >0x21 TIF> >0x0D TIF> >0x21 TIF> >0x0D TIF> >0x28 TIF> >0x0D TIF> >0x21 TIF> >0x0D TIF> >0x21 TIF> >0x0D TIF> >0x28 TIF>
 >0x0D TIF> >0x21 TIF> >0x0D TIF> >0x21 TIF> >0x0D TIF> >0x28 TIF> >0x0D TIF> >0x21 TIF> >0x0D TIF> >0x21 TIF> >0x10B TIF>Found SW-DP with ID 0x2BA01477 >0x0D TIF> >0x28 TIF> >0x0D TIF> >0x28 TIF> >0x0D TIF> >0x28 TIF> >0x0D TIF> >0x28 TIF> >0x0D TIF> >0x21 TIF> >0x0D TIF> >0x28 TIF>Scanning AP map to find all available APs >0x0D TIF> >0x28 TIF> >0x0D TIF> >0x21 TIF> >0x0D TIF> >0x21 TIF> >0x0D TIF> >0x28 TIF> >0x0D TIF> >0x21 TIF> >0x0D TIF> >0x21 TIF>
AP[1]: Stopped AP scan as end of AP map has been reachedAP[0]: AHB-AP (IDR: 0x24770011)Iterating through AP map to find AHB-AP to use >0x42 TIF> >0x28 TIF> >0x0D TIF> >0x28 TIF> >0x0D TIF> >0x21 TIF> >0x0D TIF> >0x21 TIF> >0x42 TIF> >0x28 TIF> >0x0D TIF> >0x28 TIF> >0x0D TIF> >0x28 TIF> >0x0D TIF> >0x21 TIF> >0x0D TIF> >0x21 TIF>AP[0]: Core foundAP[0]: AHB-AP ROM base: 0xE00FF000 >0x0D TIF> >0x28 TIF> >0x0D TIF> >0x28 TIF> >0x0D TIF> >0x28 TIF> >0x0D TIF> >0x21 TIF> >0x0D TIF> >0x21 TIF>
CPUID register: 0x410FC241. Implementer code: 0x41 (ARM)Found Cortex-M4 r0p1, Little endian. -- Max. mem block: 0x00005AA8 -- CPU_ReadMem(4 bytes @ 0xE000EDF0) -- CPU_WriteMem(4 bytes @ 0xE000EDF0) -- CPU_ReadMem(4 bytes @ 0xE0002000)FPUnit: 6 code (BP) slots and 2 literal slots -- CPU_ReadMem(4 bytes @ 0xE000EDFC) -- CPU_WriteMem(4 bytes @ 0xE000EDFC) -- CPU_ReadMem(4 bytes @ 0xE0001000) -- CPU_WriteMem(4 bytes @ 0xE0001000) -- CPU_ReadMem(4 bytes @ 0xE000ED88) -- CPU_WriteMem(4 bytes @ 0xE000ED88)
 -- CPU_ReadMem(4 bytes @ 0xE000ED88) -- CPU_WriteMem(4 bytes @ 0xE000ED88)CoreSight components:ROMTbl[0] @ E00FF000 -- CPU_ReadMem(16 bytes @ 0xE00FF000) -- CPU_ReadMem(16 bytes @ 0xE000EFF0) -- CPU_ReadMem(16 bytes @ 0xE000EFE0)ROMTbl[0][0]: E000E000, CID: B105E00D, PID: 000BB00C SCS-M7 -- CPU_ReadMem(16 bytes @ 0xE0001FF0) -- CPU_ReadMem(16 bytes @ 0xE0001FE0)ROMTbl[0][1]: E0001000, CID: B105E00D, PID: 003BB002 DWT -- CPU_ReadMem(16 bytes @ 0xE0002FF0) -- CPU_ReadMem(16 bytes @ 0xE0002FE0)
ROMTbl[0][2]: E0002000, CID: B105E00D, PID: 002BB003 FPB -- CPU_ReadMem(16 bytes @ 0xE0000FF0) -- CPU_ReadMem(16 bytes @ 0xE0000FE0)ROMTbl[0][3]: E0000000, CID: B105E00D, PID: 003BB001 ITM -- CPU_ReadMem(16 bytes @ 0xE00FF010) -- CPU_ReadMem(16 bytes @ 0xE0040FF0) -- CPU_ReadMem(16 bytes @ 0xE0040FE0)ROMTbl[0][4]: E0040000, CID: B105900D, PID: 000BB9A1 TPIU -- CPU_ReadMem(16 bytes @ 0xE0041FF0) -- CPU_ReadMem(16 bytes @ 0xE0041FE0)ROMTbl[0][5]: E0041000, CID: B105900D, PID: 000BB925 ETM >0x0D TIF>
 >0x21 TIF>  returns 0x2BA01477 (0126ms, 5416ms total)
T3EEC 699:766 JLINK_GetDLLVersion()  returns 64600 (0000ms, 5416ms total)
T3EEC 699:766 JLINK_CORE_GetFound()  returns 0xE0000FF (0000ms, 5416ms total)
T3EEC 699:767 JLINK_GetDebugInfo(0x100 = JLINKARM_ROM_TABLE_ADDR_INDEX) -- Value=0xE00FF000  returns 0x00 (0000ms, 5416ms total)
T3EEC 699:767 JLINK_GetDebugInfo(0x100 = JLINKARM_ROM_TABLE_ADDR_INDEX) -- Value=0xE00FF000  returns 0x00 (0000ms, 5416ms total)
T3EEC 699:767 JLINK_GetDebugInfo(0x101 = JLINKARM_DEBUG_INFO_ETM_ADDR_INDEX) -- Value=0xE0041000  returns 0x00 (0000ms, 5416ms total)
T3EEC 699:767 JLINK_ReadMemEx(0xE0041FD0, 0x0020 Bytes, ..., Flags = 0x02000004) -- CPU_ReadMem(32 bytes @ 0xE0041FD0) - Data: 04 00 00 00 00 00 00 00 00 00 00 00 00 00 00 00 ...  returns 0x20 (0000ms, 5416ms total)
T3EEC 699:767 JLINK_GetDebugInfo(0x102 = JLINKARM_DEBUG_INFO_MTB_ADDR_INDEX) -- Value=0x00000000  returns 0x00 (0000ms, 5416ms total)
T3EEC 699:767 JLINK_GetDebugInfo(0x103 = JLINKARM_DEBUG_INFO_TPIU_ADDR_INDEX) -- Value=0xE0040000  returns 0x00 (0000ms, 5416ms total)
T3EEC 699:767 JLINK_GetDebugInfo(0x104 = JLINKARM_DEBUG_INFO_ITM_ADDR_INDEX) -- Value=0xE0000000  returns 0x00 (0000ms, 5416ms total)
T3EEC 699:767 JLINK_GetDebugInfo(0x105 = JLINKARM_DEBUG_INFO_DWT_ADDR_INDEX) -- Value=0xE0001000  returns 0x00 (0000ms, 5416ms total)
T3EEC 699:767 JLINK_GetDebugInfo(0x106 = JLINKARM_DEBUG_INFO_FPB_ADDR_INDEX) -- Value=0xE0002000  returns 0x00 (0000ms, 5416ms total)
T3EEC 699:767 JLINK_GetDebugInfo(0x107 = JLINKARM_DEBUG_INFO_NVIC_ADDR_INDEX) -- Value=0xE000E000  returns 0x00 (0000ms, 5416ms total)
T3EEC 699:767 JLINK_GetDebugInfo(0x10C = JLINKARM_DEBUG_INFO_DBG_ADDR_INDEX) -- Value=0xE000EDF0  returns 0x00 (0000ms, 5416ms total)
T3EEC 699:767 JLINK_GetDebugInfo(0x01 = Unknown) -- Value=0x00000001  returns 0x00 (0000ms, 5416ms total)
T3EEC 699:767 JLINK_ReadMemU32(0xE000ED00, 0x0001 Items, ...) -- CPU_ReadMem(4 bytes @ 0xE000ED00) - Data: 41 C2 0F 41  returns 1 (0000ms, 5416ms total)
T3EEC 699:767 JLINK_GetDebugInfo(0x10F = JLINKARM_DEBUG_INFO_HAS_CORTEX_M_SECURITY_EXT_INDEX) -- Value=0x00000000  returns 0x00 (0000ms, 5416ms total)
T3EEC 699:767 JLINK_SetResetType(JLINKARM_CM3_RESET_TYPE_NORMAL)  returns JLINKARM_CM3_RESET_TYPE_NORMAL (0000ms, 5416ms total)
T3EEC 699:767 JLINK_Reset() -- CPU is running -- CPU_WriteMem(4 bytes @ 0xE000EDF0) -- CPU is running -- CPU_WriteMem(4 bytes @ 0xE000EDFC)Reset: Halt core after reset via DEMCR.VC_CORERESET. >0x35 TIF>Reset: Reset device via AIRCR.SYSRESETREQ. -- CPU is running -- CPU_WriteMem(4 bytes @ 0xE000ED0C) >0x0D TIF> >0x28 TIF> -- CPU_ReadMem(4 bytes @ 0xE000EDF0) -- CPU_ReadMem(4 bytes @ 0xE000EDF0) -- CPU is running -- CPU_WriteMem(4 bytes @ 0xE000EDF0) -- CPU is running -- CPU_WriteMem(4 bytes @ 0xE000EDFC)
 -- CPU_ReadMem(4 bytes @ 0xE000EDF0) -- CPU_WriteMem(4 bytes @ 0xE0002000) -- CPU_ReadMem(4 bytes @ 0xE000EDFC) -- CPU_ReadMem(4 bytes @ 0xE0001000) (0062ms, 5478ms total)
T3EEC 699:830 JLINK_ReadReg(R15 (PC))  returns 0x0800019C (0000ms, 5479ms total)
T3EEC 699:830 JLINK_ReadReg(XPSR)  returns 0x01000000 (0000ms, 5479ms total)
T3EEC 699:830 JLINK_Halt()  returns 0x00 (0000ms, 5479ms total)
T3EEC 699:830 JLINK_ReadMemU32(0xE000EDF0, 0x0001 Items, ...) -- CPU_ReadMem(4 bytes @ 0xE000EDF0) - Data: 03 00 03 00  returns 1 (0000ms, 5479ms total)
T3EEC 699:830 JLINK_WriteU32(0xE000EDF0, 0xA05F0003) -- CPU_WriteMem(4 bytes @ 0xE000EDF0)  returns 0 (0000ms, 5479ms total)
T3EEC 699:830 JLINK_WriteU32(0xE000EDFC, 0x01000000) -- CPU_WriteMem(4 bytes @ 0xE000EDFC)  returns 0 (0001ms, 5480ms total)
T3EEC 699:831 JLINK_GetHWStatus(...)  returns 0x00 (0000ms, 5480ms total)
T3EEC 699:831 JLINK_GetNumBPUnits(Type = 0xFFFFFF00)  returns 0x06 (0000ms, 5480ms total)
T3EEC 699:831 JLINK_GetNumBPUnits(Type = 0xF0)  returns 0x2000 (0000ms, 5480ms total)
T3EEC 699:831 JLINK_GetNumWPUnits()  returns 0x04 (0000ms, 5480ms total)
T3EEC 699:831 JLINK_GetSpeed()  returns 0xFA0 (0000ms, 5480ms total)
T3EEC 699:831 JLINK_ReadMemU32(0xE000E004, 0x0001 Items, ...) -- CPU_ReadMem(4 bytes @ 0xE000E004) - Data: 02 00 00 00  returns 1 (0000ms, 5480ms total)
T3EEC 699:831 JLINK_ReadMemU32(0xE000E004, 0x0001 Items, ...) -- CPU_ReadMem(4 bytes @ 0xE000E004) - Data: 02 00 00 00  returns 1 (0000ms, 5480ms total)
T3EEC 699:831 JLINK_WriteMemEx(0xE0001000, 0x001C Bytes, ..., Flags = 0x02000004) - Data: 01 00 00 00 00 00 00 00 00 00 00 00 00 00 00 00 ... -- CPU_WriteMem(28 bytes @ 0xE0001000)  returns 0x1C (0001ms, 5481ms total)
T3EEC 699:832 JLINK_ReadReg(R15 (PC))  returns 0x0800019C (0000ms, 5481ms total)
T3EEC 699:832 JLINK_ReadReg(XPSR)  returns 0x01000000 (0000ms, 5481ms total)
T3EEC 699:832 JLINK_WriteU32(0xE0041FB0, 0xC5ACCE55) -- CPU_WriteMem(4 bytes @ 0xE0041FB0)  returns 0 (0000ms, 5481ms total)
T3EEC 699:832 JLINK_ReadMemU32(0xE0041000, 0x0001 Items, ...) -- CPU_ReadMem(4 bytes @ 0xE0041000) - Data: 01 00 00 00  returns 1 (0001ms, 5482ms total)
T3EEC 699:833 JLINK_WriteU32(0xE0041000, 0x00000000) -- CPU_WriteMem(4 bytes @ 0xE0041000)  returns 0 (0000ms, 5482ms total)
T3EEC 699:835 JLINK_SWO_Control(JLINKARM_SWO_CMD_GET_SPEED_INFO, ...)  returns 0x00 (0000ms, 5482ms total)
T3EEC 699:835 JLINK_SWO_Control(JLINKARM_SWO_CMD_STOP, ...)  returns 0x00 (0000ms, 5482ms total)
T3EEC 699:835 JLINK_SWO_Control(JLINKARM_SWO_CMD_START, ...) -- UART -- 7304347bps -- CPU_ReadMem(4 bytes @ 0xE0042004)  returns 0x00 (0002ms, 5484ms total)
T3EEC 699:837 JLINK_WriteU32(0xE0040004, 0x00000001) -- CPU_WriteMem(4 bytes @ 0xE0040004)  returns 0 (0000ms, 5484ms total)
T3EEC 699:837 JLINK_WriteU32(0xE0040010, 0x00000016)  returns 0 (0000ms, 5484ms total)
T3EEC 699:837 JLINK_WriteU32(0xE00400F0, 0x00000002)  returns 0 (0000ms, 5484ms total)
T3EEC 699:837 JLINK_WriteU32(0xE0040304, 0x00000000)  returns 0 (0000ms, 5484ms total)
T3EEC 699:837 JLINK_WriteU32(0xE0000FB0, 0xC5ACCE55) -- CPU_WriteMem(4 bytes @ 0xE0000FB0)  returns 0 (0000ms, 5484ms total)
T3EEC 699:837 JLINK_WriteU32(0xE0000E80, 0x0001000D)  returns 0 (0000ms, 5484ms total)
T3EEC 699:837 JLINK_WriteU32(0xE0000E00, 0xFFFFFFFF)  returns 0 (0000ms, 5484ms total)
T3EEC 699:837 JLINK_WriteU32(0xE0000E40, 0x00000008)  returns 0 (0000ms, 5484ms total)
T3EEC 699:837 JLINK_WriteU32(0xE0001000, 0x00010A1F)  returns 0 (0000ms, 5484ms total)
T3EEC 699:864 JLINK_ReadMemEx(0xE0001004, 0x0004 Bytes, ..., Flags = 0x02000000) - Data: 00 00 00 00  returns 0x04 (0000ms, 5484ms total)
T3EEC 699:939 JLINK_SetResetType(JLINKARM_CM3_RESET_TYPE_NORMAL)  returns JLINKARM_CM3_RESET_TYPE_NORMAL (0000ms, 5484ms total)
T3EEC 699:939 JLINK_Reset() -- CPU_WriteMem(4 bytes @ 0xE0000E00) -- CPU_WriteMem(4 bytes @ 0xE0000E40) -- CPU_WriteMem(4 bytes @ 0xE0000E80) -- CPU_WriteMem(4 bytes @ 0xE0001000) -- CPU_WriteMem(4 bytes @ 0xE0040010) -- CPU_WriteMem(4 bytes @ 0xE00400F0) -- CPU_WriteMem(4 bytes @ 0xE0040304) -- CPU_WriteMem(4 bytes @ 0xE000EDF0) -- CPU_WriteMem(4 bytes @ 0xE000EDFC)Reset: Halt core after reset via DEMCR.VC_CORERESET. >0x35 TIF>Reset: Reset device via AIRCR.SYSRESETREQ.
 -- CPU_WriteMem(4 bytes @ 0xE000ED0C) >0x0D TIF> >0x28 TIF> -- CPU_ReadMem(4 bytes @ 0xE000EDF0) -- CPU_ReadMem(4 bytes @ 0xE000EDF0) -- CPU_WriteMem(4 bytes @ 0xE000EDF0) -- CPU_WriteMem(4 bytes @ 0xE000EDFC) -- CPU_ReadMem(4 bytes @ 0xE000EDF0) -- CPU_WriteMem(4 bytes @ 0xE0002000) -- CPU_ReadMem(4 bytes @ 0xE000EDFC) -- CPU_ReadMem(4 bytes @ 0xE0001000) -- CPU_ReadMem(4 bytes @ 0xE0042004) (0066ms, 5550ms total)
T3EEC 700:005 JLINK_WriteU32(0xE000EDFC, 0x01000000) -- CPU_WriteMem(4 bytes @ 0xE000EDFC)  returns 0 (0001ms, 5551ms total)
T3EEC 700:006 JLINK_ReadReg(R15 (PC))  returns 0x0800019C (0000ms, 5551ms total)
T3EEC 700:006 JLINK_ReadReg(XPSR)  returns 0x01000000 (0000ms, 5551ms total)
T3EEC 700:010 JLINK_ReadMemEx(0x0800019C, 0x003C Bytes, ..., Flags = 0x02000000) -- CPU_ReadMem(128 bytes @ 0x08000180) -- Updating C cache (128 bytes @ 0x08000180) -- Read from C cache (60 bytes @ 0x0800019C) - Data: DF F8 38 00 01 68 41 F4 70 01 01 60 BF F3 4F 8F ...  returns 0x3C (0001ms, 5552ms total)
T3EEC 700:011 JLINK_ReadMemEx(0x0800019C, 0x0002 Bytes, ..., Flags = 0x02000000) -- Read from C cache (2 bytes @ 0x0800019C) - Data: DF F8  returns 0x02 (0001ms, 5553ms total)
T3EEC 700:012 JLINK_ReadMemEx(0x0800019E, 0x0002 Bytes, ..., Flags = 0x02000000) -- Read from C cache (2 bytes @ 0x0800019E) - Data: 38 00  returns 0x02 (0000ms, 5553ms total)
T3EEC 700:012 JLINK_ReadMemEx(0x080001A0, 0x003C Bytes, ..., Flags = 0x02000000) -- Read from C cache (60 bytes @ 0x080001A0) - Data: 01 68 41 F4 70 01 01 60 BF F3 4F 8F DF F8 2C 00 ...  returns 0x3C (0000ms, 5553ms total)
T3EEC 700:012 JLINK_ReadMemEx(0x080001A0, 0x0002 Bytes, ..., Flags = 0x02000000) -- Read from C cache (2 bytes @ 0x080001A0) - Data: 01 68  returns 0x02 (0000ms, 5553ms total)
T3EEC 700:012 JLINK_ReadMemEx(0x080001A2, 0x0002 Bytes, ..., Flags = 0x02000000) -- Read from C cache (2 bytes @ 0x080001A2) - Data: 41 F4  returns 0x02 (0000ms, 5553ms total)
T3EEC 700:132 JLINK_WriteU32(0xE0001008, 0x00000000)  returns 0 (0000ms, 5553ms total)
T3EEC 700:132 JLINK_WriteU32(0xE000100C, 0x00000000)  returns 0 (0000ms, 5553ms total)
T3EEC 700:132 JLINK_WriteU32(0xE0001010, 0x00000000)  returns 0 (0000ms, 5553ms total)
T3EEC 700:132 JLINK_WriteU32(0xE0001014, 0x00000000)  returns 0 (0000ms, 5553ms total)
T3EEC 700:132 JLINK_WriteU32(0xE0001018, 0x00000000)  returns 0 (0000ms, 5553ms total)
T3EEC 700:716 JLINK_ReadReg(R0)  returns 0x00000000 (0000ms, 5553ms total)
T3EEC 700:716 JLINK_ReadReg(R1)  returns 0x00000000 (0001ms, 5554ms total)
T3EEC 700:717 JLINK_ReadReg(R2)  returns 0x00000000 (0000ms, 5554ms total)
T3EEC 700:717 JLINK_ReadReg(R3)  returns 0x00000000 (0000ms, 5554ms total)
T3EEC 700:717 JLINK_ReadReg(R4)  returns 0x00000000 (0000ms, 5554ms total)
T3EEC 700:717 JLINK_ReadReg(R5)  returns 0x00000000 (0000ms, 5554ms total)
T3EEC 700:717 JLINK_ReadReg(R6)  returns 0x00000000 (0000ms, 5554ms total)
T3EEC 700:717 JLINK_ReadReg(R7)  returns 0x00000000 (0000ms, 5554ms total)
T3EEC 700:717 JLINK_ReadReg(R8)  returns 0x00000000 (0000ms, 5554ms total)
T3EEC 700:717 JLINK_ReadReg(R9)  returns 0x00000000 (0000ms, 5554ms total)
T3EEC 700:717 JLINK_ReadReg(R10)  returns 0x00000000 (0000ms, 5554ms total)
T3EEC 700:717 JLINK_ReadReg(R11)  returns 0x00000000 (0000ms, 5554ms total)
T3EEC 700:717 JLINK_ReadReg(R12)  returns 0x00000000 (0000ms, 5554ms total)
T3EEC 700:717 JLINK_ReadReg(R13 (SP))  returns 0x200091C0 (0000ms, 5554ms total)
T3EEC 700:717 JLINK_ReadReg(R14)  returns 0xFFFFFFFF (0000ms, 5554ms total)
T3EEC 700:717 JLINK_ReadReg(R15 (PC))  returns 0x0800019C (0000ms, 5554ms total)
T3EEC 700:717 JLINK_ReadReg(XPSR)  returns 0x01000000 (0000ms, 5554ms total)
T3EEC 700:717 JLINK_ReadReg(MSP)  returns 0x200091C0 (0000ms, 5554ms total)
T3EEC 700:717 JLINK_ReadReg(PSP)  returns 0x00000000 (0000ms, 5554ms total)
T3EEC 700:717 JLINK_ReadReg(CFBP)  returns 0x00000000 (0000ms, 5554ms total)
T3EEC 700:717 JLINK_ReadReg(FPSCR)  returns 0x00000000 (0003ms, 5557ms total)
T3EEC 700:720 JLINK_ReadReg(FPS0)  returns 0x00000000 (0000ms, 5557ms total)
T3EEC 700:721 JLINK_ReadReg(FPS1)  returns 0x00000000 (0000ms, 5557ms total)
T3EEC 700:721 JLINK_ReadReg(FPS2)  returns 0x00000000 (0000ms, 5557ms total)
T3EEC 700:721 JLINK_ReadReg(FPS3)  returns 0x00000000 (0000ms, 5557ms total)
T3EEC 700:721 JLINK_ReadReg(FPS4)  returns 0x00000000 (0000ms, 5557ms total)
T3EEC 700:721 JLINK_ReadReg(FPS5)  returns 0x00000000 (0000ms, 5557ms total)
T3EEC 700:721 JLINK_ReadReg(FPS6)  returns 0x00000000 (0000ms, 5557ms total)
T3EEC 700:721 JLINK_ReadReg(FPS7)  returns 0x00000000 (0000ms, 5557ms total)
T3EEC 700:721 JLINK_ReadReg(FPS8)  returns 0x00000000 (0000ms, 5557ms total)
T3EEC 700:721 JLINK_ReadReg(FPS9)  returns 0x00000000 (0000ms, 5557ms total)
T3EEC 700:721 JLINK_ReadReg(FPS10)  returns 0x00000000 (0000ms, 5557ms total)
T3EEC 700:721 JLINK_ReadReg(FPS11)  returns 0x00000000 (0000ms, 5557ms total)
T3EEC 700:721 JLINK_ReadReg(FPS12)  returns 0x00000000 (0000ms, 5557ms total)
T3EEC 700:721 JLINK_ReadReg(FPS13)  returns 0x00000000 (0000ms, 5557ms total)
T3EEC 700:721 JLINK_ReadReg(FPS14)  returns 0x00000000 (0000ms, 5557ms total)
T3EEC 700:721 JLINK_ReadReg(FPS15)  returns 0x00000000 (0000ms, 5557ms total)
T3EEC 700:721 JLINK_ReadReg(FPS16)  returns 0x00000000 (0000ms, 5557ms total)
T3EEC 700:721 JLINK_ReadReg(FPS17)  returns 0x00000000 (0000ms, 5557ms total)
T3EEC 700:721 JLINK_ReadReg(FPS18)  returns 0x00000000 (0000ms, 5557ms total)
T3EEC 700:721 JLINK_ReadReg(FPS19)  returns 0x00000000 (0000ms, 5557ms total)
T3EEC 700:721 JLINK_ReadReg(FPS20)  returns 0x00000000 (0000ms, 5557ms total)
T3EEC 700:721 JLINK_ReadReg(FPS21)  returns 0x00000000 (0000ms, 5557ms total)
T3EEC 700:721 JLINK_ReadReg(FPS22)  returns 0x00000000 (0000ms, 5557ms total)
T3EEC 700:721 JLINK_ReadReg(FPS23)  returns 0x00000000 (0000ms, 5557ms total)
T3EEC 700:721 JLINK_ReadReg(FPS24)  returns 0x00000000 (0000ms, 5557ms total)
T3EEC 700:721 JLINK_ReadReg(FPS25)  returns 0x00000000 (0000ms, 5557ms total)
T3EEC 700:721 JLINK_ReadReg(FPS26)  returns 0x00000000 (0000ms, 5557ms total)
T3EEC 700:721 JLINK_ReadReg(FPS27)  returns 0x00000000 (0000ms, 5557ms total)
T3EEC 700:721 JLINK_ReadReg(FPS28)  returns 0x00000000 (0000ms, 5557ms total)
T3EEC 700:721 JLINK_ReadReg(FPS29)  returns 0x00000000 (0000ms, 5557ms total)
T3EEC 700:721 JLINK_ReadReg(FPS30)  returns 0x00000000 (0000ms, 5557ms total)
T3EEC 700:721 JLINK_ReadReg(FPS31)  returns 0x00000000 (0000ms, 5557ms total)
T3EEC 700:721 JLINK_ReadMemEx(0x20008688, 0x01E0 Bytes, ..., Flags = 0x02000000) -- CPU_ReadMem(512 bytes @ 0x20008680) -- Updating C cache (512 bytes @ 0x20008680) -- Read from C cache (480 bytes @ 0x20008688) - Data: 77 6F 72 6C 64 0A 00 68 65 6C 6C 6F 20 77 6F 72 ...  returns 0x1E0 (0003ms, 5560ms total)
T3EEC 700:730 JLINK_ReadMemEx(0x20008688, 0x01E0 Bytes, ..., Flags = 0x02000000) -- Read from C cache (480 bytes @ 0x20008688) - Data: 77 6F 72 6C 64 0A 00 68 65 6C 6C 6F 20 77 6F 72 ...  returns 0x1E0 (0000ms, 5560ms total)
T3EEC 700:731 JLINK_ReadMemEx(0x20008688, 0x01E0 Bytes, ..., Flags = 0x02000000) -- Read from C cache (480 bytes @ 0x20008688) - Data: 77 6F 72 6C 64 0A 00 68 65 6C 6C 6F 20 77 6F 72 ...  returns 0x1E0 (0000ms, 5560ms total)
T3EEC 701:012 JLINK_ReadMemEx(0x0800019C, 0x003C Bytes, ..., Flags = 0x02000000) -- Read from C cache (60 bytes @ 0x0800019C) - Data: DF F8 38 00 01 68 41 F4 70 01 01 60 BF F3 4F 8F ...  returns 0x3C (0000ms, 5560ms total)
T3EEC 701:012 JLINK_ReadMemEx(0x0800019C, 0x0002 Bytes, ..., Flags = 0x02000000) -- Read from C cache (2 bytes @ 0x0800019C) - Data: DF F8  returns 0x02 (0000ms, 5560ms total)
T3EEC 701:012 JLINK_ReadMemEx(0x0800019E, 0x0002 Bytes, ..., Flags = 0x02000000) -- Read from C cache (2 bytes @ 0x0800019E) - Data: 38 00  returns 0x02 (0000ms, 5560ms total)
T3EEC 701:012 JLINK_ReadMemEx(0x080001A0, 0x003C Bytes, ..., Flags = 0x02000000) -- Read from C cache (60 bytes @ 0x080001A0) - Data: 01 68 41 F4 70 01 01 60 BF F3 4F 8F DF F8 2C 00 ...  returns 0x3C (0000ms, 5560ms total)
T3EEC 701:012 JLINK_ReadMemEx(0x080001A0, 0x0002 Bytes, ..., Flags = 0x02000000) -- Read from C cache (2 bytes @ 0x080001A0) - Data: 01 68  returns 0x02 (0000ms, 5560ms total)
T3EEC 701:012 JLINK_ReadMemEx(0x080001A2, 0x0002 Bytes, ..., Flags = 0x02000000) -- Read from C cache (2 bytes @ 0x080001A2) - Data: 41 F4  returns 0x02 (0000ms, 5560ms total)
T3EEC 701:063 JLINK_ReadMemEx(0x2000864F, 0x016E Bytes, ..., Flags = 0x02000000) -- CPU_ReadMem(64 bytes @ 0x20008640) -- Updating C cache (64 bytes @ 0x20008640) -- Read from C cache (366 bytes @ 0x2000864F) - Data: 65 6C 6C 6F 20 77 6F 72 6C 64 0A 00 68 65 6C 6C ...  returns 0x16E (0001ms, 5561ms total)
T3EEC 701:065 JLINK_ReadMemEx(0x2000864F, 0x016E Bytes, ..., Flags = 0x02000000) -- Read from C cache (366 bytes @ 0x2000864F) - Data: 65 6C 6C 6F 20 77 6F 72 6C 64 0A 00 68 65 6C 6C ...  returns 0x16E (0000ms, 5561ms total)
T3EEC 701:084 JLINK_ReadMemEx(0x0800019C, 0x003C Bytes, ..., Flags = 0x02000000) -- Read from C cache (60 bytes @ 0x0800019C) - Data: DF F8 38 00 01 68 41 F4 70 01 01 60 BF F3 4F 8F ...  returns 0x3C (0000ms, 5561ms total)
T3EEC 701:084 JLINK_ReadMemEx(0x0800019C, 0x0002 Bytes, ..., Flags = 0x02000000) -- Read from C cache (2 bytes @ 0x0800019C) - Data: DF F8  returns 0x02 (0000ms, 5561ms total)
T3EEC 701:084 JLINK_ReadMemEx(0x0800019E, 0x0002 Bytes, ..., Flags = 0x02000000) -- Read from C cache (2 bytes @ 0x0800019E) - Data: 38 00  returns 0x02 (0000ms, 5561ms total)
T3EEC 701:084 JLINK_ReadMemEx(0x080001A0, 0x003C Bytes, ..., Flags = 0x02000000) -- Read from C cache (60 bytes @ 0x080001A0) - Data: 01 68 41 F4 70 01 01 60 BF F3 4F 8F DF F8 2C 00 ...  returns 0x3C (0001ms, 5562ms total)
T3EEC 701:085 JLINK_ReadMemEx(0x080001A0, 0x0002 Bytes, ..., Flags = 0x02000000) -- Read from C cache (2 bytes @ 0x080001A0) - Data: 01 68  returns 0x02 (0000ms, 5562ms total)
T3EEC 701:086 JLINK_ReadMemEx(0x080001A2, 0x0002 Bytes, ..., Flags = 0x02000000) -- Read from C cache (2 bytes @ 0x080001A2) - Data: 41 F4  returns 0x02 (0000ms, 5562ms total)
T3EEC 701:214 JLINK_ReadMemEx(0x20008598, 0x016E Bytes, ..., Flags = 0x02000000) -- CPU_ReadMem(192 bytes @ 0x20008580) -- Updating C cache (192 bytes @ 0x20008580) -- Read from C cache (366 bytes @ 0x20008598) - Data: 68 65 6C 6C 6F 20 77 6F 72 6C 64 0A 00 68 65 6C ...  returns 0x16E (0001ms, 5563ms total)
T3EEC 701:218 JLINK_ReadMemEx(0x20008598, 0x016E Bytes, ..., Flags = 0x02000000) -- Read from C cache (366 bytes @ 0x20008598) - Data: 68 65 6C 6C 6F 20 77 6F 72 6C 64 0A 00 68 65 6C ...  returns 0x16E (0000ms, 5564ms total)
T27C4 701:240 JLINK_ReadMemEx(0x0800019C, 0x0002 Bytes, ..., Flags = 0x02000000) -- Read from C cache (2 bytes @ 0x0800019C) - Data: DF F8  returns 0x02 (0000ms, 5564ms total)
T27C4 701:240 JLINK_SetBPEx(Addr = 0x08005D28, Type = 0xFFFFFFF2)  returns 0x00000001 (0000ms, 5564ms total)
T27C4 701:240 JLINK_ReadMemU32(0xE0001004, 0x0001 Items, ...) - Data: 00 00 00 00  returns 1 (0000ms, 5564ms total)
T27C4 701:240 JLINK_WriteU32(0xE0001004, 0x000003FF)  returns 0 (0000ms, 5564ms total)
T27C4 701:240 JLINK_WriteU32(0xE0001000, 0x00410A1F)  returns 0 (0000ms, 5564ms total)
T27C4 701:240 JLINK_WriteU32(0xE0000E80, 0x0001000F)  returns 0 (0000ms, 5564ms total)
T27C4 701:240 JLINK_SWO_Control(JLINKARM_SWO_CMD_GET_NUM_BYTES, ...)  returns 0x00 (0000ms, 5564ms total)
T27C4 701:240 JLINK_Go() -- CPU_WriteMem(4 bytes @ 0xE0002000) -- CPU_WriteMem(4 bytes @ 0xE0001000) -- CPU_ReadMem(4 bytes @ 0xE0001000) -- CPU_WriteMem(4 bytes @ 0xE0000E80) -- CPU_WriteMem(4 bytes @ 0xE0001008) -- CPU_WriteMem(4 bytes @ 0xE000100C) -- CPU_WriteMem(4 bytes @ 0xE0001010) -- CPU_WriteMem(4 bytes @ 0xE0001014) -- CPU_WriteMem(4 bytes @ 0xE0001018) -- CPU_WriteMem(4 bytes @ 0xE0002008) -- CPU_WriteMem(4 bytes @ 0xE000200C) -- CPU_WriteMem(4 bytes @ 0xE0002010)
 -- CPU_WriteMem(4 bytes @ 0xE0002014) -- CPU_WriteMem(4 bytes @ 0xE0002018) -- CPU_WriteMem(4 bytes @ 0xE000201C) -- CPU_WriteMem(4 bytes @ 0xE0001004) (0004ms, 5568ms total)
T27C4 701:244 JLINK_WriteU32(0xE0001000, 0x00010A1F) -- CPU is running -- CPU_WriteMem(4 bytes @ 0xE0001000)  returns 0 (0000ms, 5568ms total)
T27C4 701:345 JLINK_SWO_Read(..., Offset = 0x00, NumBytes = 0x400000) - Data: 00 00 00 00 00 80  NumBytesRead = 0x06 (0000ms, 5568ms total)
T27C4 701:345 JLINK_SWO_Control(JLINKARM_SWO_CMD_FLUSH, ...)  returns 0x00 (0000ms, 5568ms total)
T27C4 701:345 JLINK_IsHalted()  returns TRUE (0003ms, 5571ms total)
T27C4 701:348 JLINK_Halt()  returns 0x00 (0000ms, 5568ms total)
T27C4 701:348 JLINK_IsHalted()  returns TRUE (0000ms, 5568ms total)
T27C4 701:348 JLINK_IsHalted()  returns TRUE (0000ms, 5568ms total)
T27C4 701:348 JLINK_IsHalted()  returns TRUE (0000ms, 5568ms total)
T27C4 701:348 JLINK_ReadReg(R15 (PC))  returns 0x08005D28 (0000ms, 5568ms total)
T27C4 701:348 JLINK_ReadReg(XPSR)  returns 0x61000000 (0000ms, 5568ms total)
T27C4 701:348 JLINK_SWO_Read(..., Offset = 0x00, NumBytes = 0x400000) - Data:  NumBytesRead = 0x00 (0000ms, 5568ms total)
T27C4 701:348 JLINK_SWO_Control(JLINKARM_SWO_CMD_FLUSH, ...)  returns 0x00 (0001ms, 5569ms total)
T27C4 701:349 JLINK_ClrBPEx(BPHandle = 0x00000001)  returns 0x00 (0000ms, 5569ms total)
T27C4 701:349 JLINK_ReadMemU32(0xE000ED30, 0x0001 Items, ...) -- CPU_ReadMem(4 bytes @ 0xE000ED30) - Data: 02 00 00 00  returns 1 (0001ms, 5570ms total)
T27C4 701:350 JLINK_ReadMemU32(0xE0001028, 0x0001 Items, ...) -- CPU_ReadMem(4 bytes @ 0xE0001028) - Data: 00 00 00 00  returns 1 (0000ms, 5570ms total)
T27C4 701:350 JLINK_ReadMemU32(0xE0001038, 0x0001 Items, ...) -- CPU_ReadMem(4 bytes @ 0xE0001038) - Data: 00 02 00 00  returns 1 (0001ms, 5571ms total)
T27C4 701:351 JLINK_ReadMemU32(0xE0001048, 0x0001 Items, ...) -- CPU_ReadMem(4 bytes @ 0xE0001048) - Data: 00 00 00 00  returns 1 (0001ms, 5572ms total)
T27C4 701:352 JLINK_ReadMemU32(0xE0001058, 0x0001 Items, ...) -- CPU_ReadMem(4 bytes @ 0xE0001058) - Data: 00 00 00 00  returns 1 (0000ms, 5572ms total)
T27C4 701:352 JLINK_ReadReg(R0)  returns 0x08005D29 (0000ms, 5572ms total)
T27C4 701:352 JLINK_ReadReg(R1)  returns 0x200091C0 (0000ms, 5572ms total)
T27C4 701:352 JLINK_ReadReg(R2)  returns 0x00000000 (0000ms, 5572ms total)
T27C4 701:352 JLINK_ReadReg(R3)  returns 0x080058C1 (0000ms, 5572ms total)
T27C4 701:352 JLINK_ReadReg(R4)  returns 0x08006058 (0000ms, 5572ms total)
T27C4 701:352 JLINK_ReadReg(R5)  returns 0x08006058 (0001ms, 5573ms total)
T27C4 701:353 JLINK_ReadReg(R6)  returns 0x00000000 (0000ms, 5573ms total)
T27C4 701:353 JLINK_ReadReg(R7)  returns 0x00000000 (0000ms, 5573ms total)
T27C4 701:353 JLINK_ReadReg(R8)  returns 0x00000000 (0000ms, 5573ms total)
T27C4 701:353 JLINK_ReadReg(R9)  returns 0x00000000 (0001ms, 5574ms total)
T27C4 701:354 JLINK_ReadReg(R10)  returns 0x00000000 (0000ms, 5574ms total)
T27C4 701:354 JLINK_ReadReg(R11)  returns 0x00000000 (0000ms, 5574ms total)
T27C4 701:354 JLINK_ReadReg(R12)  returns 0x00000000 (0000ms, 5574ms total)
T27C4 701:354 JLINK_ReadReg(R13 (SP))  returns 0x200091C0 (0000ms, 5574ms total)
T27C4 701:354 JLINK_ReadReg(R14)  returns 0x08000485 (0000ms, 5574ms total)
T27C4 701:354 JLINK_ReadReg(R15 (PC))  returns 0x08005D28 (0000ms, 5574ms total)
T27C4 701:354 JLINK_ReadReg(XPSR)  returns 0x61000000 (0000ms, 5574ms total)
T27C4 701:355 JLINK_ReadReg(MSP)  returns 0x200091C0 (0000ms, 5575ms total)
T27C4 701:355 JLINK_ReadReg(PSP)  returns 0x00000000 (0000ms, 5575ms total)
T27C4 701:355 JLINK_ReadReg(CFBP)  returns 0x00000000 (0000ms, 5575ms total)
T27C4 701:355 JLINK_ReadReg(FPSCR)  returns 0x00000000 (0003ms, 5578ms total)
T27C4 701:358 JLINK_ReadReg(FPS0)  returns 0x00000000 (0000ms, 5578ms total)
T27C4 701:358 JLINK_ReadReg(FPS1)  returns 0x00000000 (0000ms, 5578ms total)
T27C4 701:358 JLINK_ReadReg(FPS2)  returns 0x00000000 (0000ms, 5578ms total)
T27C4 701:358 JLINK_ReadReg(FPS3)  returns 0x00000000 (0000ms, 5578ms total)
T27C4 701:358 JLINK_ReadReg(FPS4)  returns 0x00000000 (0000ms, 5578ms total)
T27C4 701:358 JLINK_ReadReg(FPS5)  returns 0x00000000 (0000ms, 5578ms total)
T27C4 701:358 JLINK_ReadReg(FPS6)  returns 0x00000000 (0000ms, 5578ms total)
T27C4 701:358 JLINK_ReadReg(FPS7)  returns 0x00000000 (0000ms, 5578ms total)
T27C4 701:359 JLINK_ReadReg(FPS8)  returns 0x00000000 (0000ms, 5578ms total)
T27C4 701:359 JLINK_ReadReg(FPS9)  returns 0x00000000 (0000ms, 5578ms total)
T27C4 701:359 JLINK_ReadReg(FPS10)  returns 0x00000000 (0000ms, 5578ms total)
T27C4 701:359 JLINK_ReadReg(FPS11)  returns 0x00000000 (0000ms, 5578ms total)
T27C4 701:359 JLINK_ReadReg(FPS12)  returns 0x00000000 (0000ms, 5578ms total)
T27C4 701:359 JLINK_ReadReg(FPS13)  returns 0x00000000 (0000ms, 5578ms total)
T27C4 701:359 JLINK_ReadReg(FPS14)  returns 0x00000000 (0000ms, 5578ms total)
T27C4 701:359 JLINK_ReadReg(FPS15)  returns 0x00000000 (0000ms, 5578ms total)
T27C4 701:359 JLINK_ReadReg(FPS16)  returns 0x00000000 (0000ms, 5578ms total)
T27C4 701:359 JLINK_ReadReg(FPS17)  returns 0x00000000 (0000ms, 5578ms total)
T27C4 701:359 JLINK_ReadReg(FPS18)  returns 0x00000000 (0000ms, 5578ms total)
T27C4 701:359 JLINK_ReadReg(FPS19)  returns 0x00000000 (0000ms, 5578ms total)
T27C4 701:359 JLINK_ReadReg(FPS20)  returns 0x00000000 (0000ms, 5578ms total)
T27C4 701:359 JLINK_ReadReg(FPS21)  returns 0x00000000 (0000ms, 5578ms total)
T27C4 701:359 JLINK_ReadReg(FPS22)  returns 0x00000000 (0000ms, 5578ms total)
T27C4 701:359 JLINK_ReadReg(FPS23)  returns 0x00000000 (0000ms, 5578ms total)
T27C4 701:359 JLINK_ReadReg(FPS24)  returns 0x00000000 (0000ms, 5578ms total)
T27C4 701:359 JLINK_ReadReg(FPS25)  returns 0x00000000 (0000ms, 5578ms total)
T27C4 701:359 JLINK_ReadReg(FPS26)  returns 0x00000000 (0000ms, 5578ms total)
T27C4 701:359 JLINK_ReadReg(FPS27)  returns 0x00000000 (0000ms, 5578ms total)
T27C4 701:359 JLINK_ReadReg(FPS28)  returns 0x00000000 (0000ms, 5578ms total)
T27C4 701:359 JLINK_ReadReg(FPS29)  returns 0x00000000 (0000ms, 5578ms total)
T27C4 701:359 JLINK_ReadReg(FPS30)  returns 0x00000000 (0000ms, 5578ms total)
T27C4 701:359 JLINK_ReadReg(FPS31)  returns 0x00000000 (0000ms, 5578ms total)
T3EEC 701:361 JLINK_ReadMemEx(0x200091B8, 0x0002 Bytes, ..., Flags = 0x02000000) -- CPU_ReadMem(64 bytes @ 0x20009180) -- Updating C cache (64 bytes @ 0x20009180) -- Read from C cache (2 bytes @ 0x200091B8) - Data: 00 00  returns 0x02 (0001ms, 5579ms total)
T3EEC 701:364 JLINK_ReadMemEx(0x200091B8, 0x0002 Bytes, ..., Flags = 0x02000000) -- Read from C cache (2 bytes @ 0x200091B8) - Data: 00 00  returns 0x02 (0000ms, 5579ms total)
T3EEC 701:364 JLINK_ReadMemEx(0x20008598, 0x016E Bytes, ..., Flags = 0x02000000) -- CPU_ReadMem(448 bytes @ 0x20008580) -- Updating C cache (448 bytes @ 0x20008580) -- Read from C cache (366 bytes @ 0x20008598) - Data: 00 00 00 00 00 00 00 00 00 00 00 00 00 00 00 00 ...  returns 0x16E (0003ms, 5582ms total)
T3EEC 701:372 JLINK_ReadMemEx(0x08005D28, 0x003C Bytes, ..., Flags = 0x02000000) -- CPU_ReadMem(128 bytes @ 0x08005D00) -- Updating C cache (128 bytes @ 0x08005D00) -- Read from C cache (60 bytes @ 0x08005D28) - Data: 00 B5 8B B0 FA F7 81 FD FA F7 67 FD FA F7 82 FD ...  returns 0x3C (0001ms, 5583ms total)
T3EEC 701:373 JLINK_ReadMemEx(0x08005D28, 0x0002 Bytes, ..., Flags = 0x02000000) -- Read from C cache (2 bytes @ 0x08005D28) - Data: 00 B5  returns 0x02 (0000ms, 5583ms total)
T3EEC 701:373 JLINK_ReadMemEx(0x08005D2A, 0x0002 Bytes, ..., Flags = 0x02000000) -- Read from C cache (2 bytes @ 0x08005D2A) - Data: 8B B0  returns 0x02 (0000ms, 5583ms total)
T3EEC 701:373 JLINK_ReadMemEx(0x08005D2A, 0x0002 Bytes, ..., Flags = 0x02000000) -- Read from C cache (2 bytes @ 0x08005D2A) - Data: 8B B0  returns 0x02 (0001ms, 5584ms total)
T3EEC 701:374 JLINK_ReadMemEx(0x08005D2C, 0x003C Bytes, ..., Flags = 0x02000000) -- Read from C cache (60 bytes @ 0x08005D2C) - Data: FA F7 81 FD FA F7 67 FD FA F7 82 FD FA F7 90 FD ...  returns 0x3C (0000ms, 5584ms total)
T3EEC 701:374 JLINK_ReadMemEx(0x08005D2C, 0x0002 Bytes, ..., Flags = 0x02000000) -- Read from C cache (2 bytes @ 0x08005D2C) - Data: FA F7  returns 0x02 (0000ms, 5584ms total)
T3EEC 703:131 JLINK_SetResetType(JLINKARM_CM3_RESET_TYPE_NORMAL)  returns JLINKARM_CM3_RESET_TYPE_NORMAL (0000ms, 5584ms total)
T3EEC 703:131 JLINK_Reset() -- CPU_WriteMem(4 bytes @ 0xE000EDF0) -- CPU_WriteMem(4 bytes @ 0xE000EDFC)Reset: Halt core after reset via DEMCR.VC_CORERESET. >0x35 TIF>Reset: Reset device via AIRCR.SYSRESETREQ. -- CPU_WriteMem(4 bytes @ 0xE000ED0C) >0x0D TIF> >0x28 TIF> -- CPU_ReadMem(4 bytes @ 0xE000EDF0) -- CPU_ReadMem(4 bytes @ 0xE000EDF0) -- CPU_WriteMem(4 bytes @ 0xE000EDF0) -- CPU_WriteMem(4 bytes @ 0xE000EDFC) -- CPU_ReadMem(4 bytes @ 0xE000EDF0) -- CPU_WriteMem(4 bytes @ 0xE0002000)
 -- CPU_ReadMem(4 bytes @ 0xE000EDFC) -- CPU_ReadMem(4 bytes @ 0xE0001000) -- CPU_ReadMem(4 bytes @ 0xE0042004) (0064ms, 5648ms total)
T3EEC 703:195 JLINK_WriteU32(0xE000EDFC, 0x01000000) -- CPU_WriteMem(4 bytes @ 0xE000EDFC)  returns 0 (0000ms, 5648ms total)
T3EEC 703:196 JLINK_ReadReg(R15 (PC))  returns 0x0800019C (0000ms, 5648ms total)
T3EEC 703:196 JLINK_ReadReg(XPSR)  returns 0x01000000 (0000ms, 5648ms total)
T3EEC 703:200 JLINK_ReadReg(R0)  returns 0x00000000 (0000ms, 5648ms total)
T3EEC 703:200 JLINK_ReadReg(R1)  returns 0x00000000 (0000ms, 5648ms total)
T3EEC 703:200 JLINK_ReadReg(R2)  returns 0x00000000 (0000ms, 5648ms total)
T3EEC 703:200 JLINK_ReadReg(R3)  returns 0x00000000 (0000ms, 5648ms total)
T3EEC 703:200 JLINK_ReadReg(R4)  returns 0x00000000 (0000ms, 5648ms total)
T3EEC 703:200 JLINK_ReadReg(R5)  returns 0x00000000 (0000ms, 5648ms total)
T3EEC 703:200 JLINK_ReadReg(R6)  returns 0x00000000 (0000ms, 5648ms total)
T3EEC 703:200 JLINK_ReadReg(R7)  returns 0x00000000 (0000ms, 5648ms total)
T3EEC 703:200 JLINK_ReadReg(R8)  returns 0x00000000 (0000ms, 5648ms total)
T3EEC 703:200 JLINK_ReadReg(R9)  returns 0x00000000 (0000ms, 5648ms total)
T3EEC 703:200 JLINK_ReadReg(R10)  returns 0x00000000 (0000ms, 5648ms total)
T3EEC 703:200 JLINK_ReadReg(R11)  returns 0x00000000 (0000ms, 5648ms total)
T3EEC 703:200 JLINK_ReadReg(R12)  returns 0x00000000 (0000ms, 5648ms total)
T3EEC 703:200 JLINK_ReadReg(R13 (SP))  returns 0x200091C0 (0000ms, 5648ms total)
T3EEC 703:200 JLINK_ReadReg(R14)  returns 0xFFFFFFFF (0000ms, 5648ms total)
T3EEC 703:200 JLINK_ReadReg(R15 (PC))  returns 0x0800019C (0000ms, 5648ms total)
T3EEC 703:200 JLINK_ReadReg(XPSR)  returns 0x01000000 (0000ms, 5648ms total)
T3EEC 703:200 JLINK_ReadReg(MSP)  returns 0x200091C0 (0000ms, 5648ms total)
T3EEC 703:200 JLINK_ReadReg(PSP)  returns 0x00000000 (0000ms, 5648ms total)
T3EEC 703:200 JLINK_ReadReg(CFBP)  returns 0x00000000 (0000ms, 5648ms total)
T3EEC 703:200 JLINK_ReadReg(FPSCR)  returns 0x00000000 (0003ms, 5651ms total)
T3EEC 703:203 JLINK_ReadReg(FPS0)  returns 0x00000000 (0000ms, 5651ms total)
T3EEC 703:203 JLINK_ReadReg(FPS1)  returns 0x00000000 (0000ms, 5651ms total)
T3EEC 703:203 JLINK_ReadReg(FPS2)  returns 0x00000000 (0000ms, 5651ms total)
T3EEC 703:203 JLINK_ReadReg(FPS3)  returns 0x00000000 (0000ms, 5651ms total)
T3EEC 703:203 JLINK_ReadReg(FPS4)  returns 0x00000000 (0000ms, 5651ms total)
T3EEC 703:203 JLINK_ReadReg(FPS5)  returns 0x00000000 (0000ms, 5651ms total)
T3EEC 703:203 JLINK_ReadReg(FPS6)  returns 0x00000000 (0000ms, 5651ms total)
T3EEC 703:203 JLINK_ReadReg(FPS7)  returns 0x00000000 (0000ms, 5651ms total)
T3EEC 703:203 JLINK_ReadReg(FPS8)  returns 0x00000000 (0001ms, 5652ms total)
T3EEC 703:204 JLINK_ReadReg(FPS9)  returns 0x00000000 (0000ms, 5652ms total)
T3EEC 703:204 JLINK_ReadReg(FPS10)  returns 0x00000000 (0000ms, 5652ms total)
T3EEC 703:204 JLINK_ReadReg(FPS11)  returns 0x00000000 (0000ms, 5652ms total)
T3EEC 703:204 JLINK_ReadReg(FPS12)  returns 0x00000000 (0000ms, 5652ms total)
T3EEC 703:204 JLINK_ReadReg(FPS13)  returns 0x00000000 (0000ms, 5652ms total)
T3EEC 703:204 JLINK_ReadReg(FPS14)  returns 0x00000000 (0000ms, 5652ms total)
T3EEC 703:204 JLINK_ReadReg(FPS15)  returns 0x00000000 (0000ms, 5652ms total)
T3EEC 703:204 JLINK_ReadReg(FPS16)  returns 0x00000000 (0000ms, 5652ms total)
T3EEC 703:204 JLINK_ReadReg(FPS17)  returns 0x00000000 (0000ms, 5652ms total)
T3EEC 703:204 JLINK_ReadReg(FPS18)  returns 0x00000000 (0000ms, 5652ms total)
T3EEC 703:204 JLINK_ReadReg(FPS19)  returns 0x00000000 (0000ms, 5652ms total)
T3EEC 703:204 JLINK_ReadReg(FPS20)  returns 0x00000000 (0000ms, 5652ms total)
T3EEC 703:204 JLINK_ReadReg(FPS21)  returns 0x00000000 (0000ms, 5652ms total)
T3EEC 703:204 JLINK_ReadReg(FPS22)  returns 0x00000000 (0000ms, 5652ms total)
T3EEC 703:204 JLINK_ReadReg(FPS23)  returns 0x00000000 (0000ms, 5652ms total)
T3EEC 703:204 JLINK_ReadReg(FPS24)  returns 0x00000000 (0000ms, 5652ms total)
T3EEC 703:204 JLINK_ReadReg(FPS25)  returns 0x00000000 (0000ms, 5652ms total)
T3EEC 703:204 JLINK_ReadReg(FPS26)  returns 0x00000000 (0000ms, 5652ms total)
T3EEC 703:204 JLINK_ReadReg(FPS27)  returns 0x00000000 (0001ms, 5653ms total)
T3EEC 703:205 JLINK_ReadReg(FPS28)  returns 0x00000000 (0000ms, 5653ms total)
T3EEC 703:205 JLINK_ReadReg(FPS29)  returns 0x00000000 (0000ms, 5653ms total)
T3EEC 703:205 JLINK_ReadReg(FPS30)  returns 0x00000000 (0000ms, 5653ms total)
T3EEC 703:205 JLINK_ReadReg(FPS31)  returns 0x00000000 (0000ms, 5653ms total)
T3EEC 703:205 JLINK_ReadMemEx(0x20008598, 0x016E Bytes, ..., Flags = 0x02000000) -- CPU_ReadMem(448 bytes @ 0x20008580) -- Updating C cache (448 bytes @ 0x20008580) -- Read from C cache (366 bytes @ 0x20008598) - Data: 00 00 00 00 00 00 00 00 00 00 00 00 00 00 00 00 ...  returns 0x16E (0002ms, 5655ms total)
T3EEC 703:210 JLINK_ReadMemEx(0x0800019C, 0x003C Bytes, ..., Flags = 0x02000000) -- CPU_ReadMem(128 bytes @ 0x08000180) -- Updating C cache (128 bytes @ 0x08000180) -- Read from C cache (60 bytes @ 0x0800019C) - Data: DF F8 38 00 01 68 41 F4 70 01 01 60 BF F3 4F 8F ...  returns 0x3C (0001ms, 5656ms total)
T3EEC 703:211 JLINK_ReadMemEx(0x0800019C, 0x0002 Bytes, ..., Flags = 0x02000000) -- Read from C cache (2 bytes @ 0x0800019C) - Data: DF F8  returns 0x02 (0000ms, 5656ms total)
T3EEC 703:211 JLINK_ReadMemEx(0x0800019E, 0x0002 Bytes, ..., Flags = 0x02000000) -- Read from C cache (2 bytes @ 0x0800019E) - Data: 38 00  returns 0x02 (0000ms, 5656ms total)
T3EEC 703:211 JLINK_ReadMemEx(0x080001A0, 0x003C Bytes, ..., Flags = 0x02000000) -- Read from C cache (60 bytes @ 0x080001A0) - Data: 01 68 41 F4 70 01 01 60 BF F3 4F 8F DF F8 2C 00 ...  returns 0x3C (0000ms, 5656ms total)
T3EEC 703:211 JLINK_ReadMemEx(0x080001A0, 0x0002 Bytes, ..., Flags = 0x02000000) -- Read from C cache (2 bytes @ 0x080001A0) - Data: 01 68  returns 0x02 (0000ms, 5656ms total)
T3EEC 703:211 JLINK_ReadMemEx(0x080001A2, 0x0002 Bytes, ..., Flags = 0x02000000) -- Read from C cache (2 bytes @ 0x080001A2) - Data: 41 F4  returns 0x02 (0000ms, 5656ms total)
T3EEC 703:304 JLINK_WriteU32(0xE0001008, 0x00000000)  returns 0 (0000ms, 5656ms total)
T3EEC 703:304 JLINK_WriteU32(0xE000100C, 0x00000000)  returns 0 (0000ms, 5656ms total)
T3EEC 703:304 JLINK_WriteU32(0xE0001010, 0x00000000)  returns 0 (0000ms, 5656ms total)
T3EEC 703:304 JLINK_WriteU32(0xE0001014, 0x00000000)  returns 0 (0000ms, 5656ms total)
T3EEC 703:304 JLINK_WriteU32(0xE0001018, 0x00000000)  returns 0 (0001ms, 5657ms total)
T27C4 704:348 JLINK_ReadMemEx(0x0800019C, 0x0002 Bytes, ..., Flags = 0x02000000) -- Read from C cache (2 bytes @ 0x0800019C) - Data: DF F8  returns 0x02 (0000ms, 5657ms total)
T27C4 704:348 JLINK_ReadMemU32(0xE0001004, 0x0001 Items, ...) - Data: 00 00 00 00  returns 1 (0000ms, 5657ms total)
T27C4 704:348 JLINK_WriteU32(0xE0001004, 0x000003FF)  returns 0 (0000ms, 5657ms total)
T27C4 704:348 JLINK_WriteU32(0xE0001000, 0x00410A1F)  returns 0 (0000ms, 5657ms total)
T27C4 704:348 JLINK_WriteU32(0xE0000E80, 0x0001000F)  returns 0 (0000ms, 5657ms total)
T27C4 704:348 JLINK_SWO_Control(JLINKARM_SWO_CMD_GET_NUM_BYTES, ...)  returns 0x00 (0000ms, 5657ms total)
T27C4 704:348 JLINK_Go() -- CPU_WriteMem(4 bytes @ 0xE0001000) -- CPU_ReadMem(4 bytes @ 0xE0001000) -- CPU_WriteMem(4 bytes @ 0xE0000E80) -- CPU_WriteMem(4 bytes @ 0xE0001008) -- CPU_WriteMem(4 bytes @ 0xE000100C) -- CPU_WriteMem(4 bytes @ 0xE0001010) -- CPU_WriteMem(4 bytes @ 0xE0001014) -- CPU_WriteMem(4 bytes @ 0xE0001018) -- CPU_WriteMem(4 bytes @ 0xE0002008) -- CPU_WriteMem(4 bytes @ 0xE000200C) -- CPU_WriteMem(4 bytes @ 0xE0002010) -- CPU_WriteMem(4 bytes @ 0xE0002014)
 -- CPU_WriteMem(4 bytes @ 0xE0002018) -- CPU_WriteMem(4 bytes @ 0xE000201C) -- CPU_WriteMem(4 bytes @ 0xE0001004) (0003ms, 5660ms total)
T27C4 704:351 JLINK_WriteU32(0xE0001000, 0x00010A1F) -- CPU is running -- CPU_WriteMem(4 bytes @ 0xE0001000)  returns 0 (0001ms, 5661ms total)
T27C4 704:453 JLINK_SWO_Read(..., Offset = 0x00, NumBytes = 0x400000) - Data: 0E 0E 10 C0 9E CE 05 0E 0E 20 C0 CC 01 0E 00 30 ...  NumBytesRead = 0xD99 (0000ms, 5661ms total)
T27C4 704:453 JLINK_SWO_Control(JLINKARM_SWO_CMD_FLUSH, ...)  returns 0x00 (0000ms, 5661ms total)
T27C4 704:453 JLINK_IsHalted()  returns FALSE (0000ms, 5661ms total)
T27C4 704:554 JLINK_SWO_Read(..., Offset = 0x00, NumBytes = 0x400000) - Data: 0E 0F 10 C0 A8 FE 09 0E 0F 20 C0 98 06 0E 0E 10 ...  NumBytesRead = 0xE2F (0000ms, 5661ms total)
T27C4 704:554 JLINK_SWO_Control(JLINKARM_SWO_CMD_FLUSH, ...)  returns 0x00 (0000ms, 5661ms total)
T27C4 704:554 JLINK_IsHalted()  returns FALSE (0000ms, 5661ms total)
T27C4 704:655 JLINK_SWO_Read(..., Offset = 0x00, NumBytes = 0x400000) - Data: 0E 0F 10 C0 8A F9 09 0E 0F 20 C0 98 06 0E 0E 10 ...  NumBytesRead = 0xE5D (0000ms, 5661ms total)
T27C4 704:655 JLINK_SWO_Control(JLINKARM_SWO_CMD_FLUSH, ...)  returns 0x00 (0000ms, 5661ms total)
T27C4 704:655 JLINK_IsHalted()  returns FALSE (0000ms, 5661ms total)
T27C4 704:756 JLINK_SWO_Read(..., Offset = 0x00, NumBytes = 0x400000) - Data: 0E 0F 10 C0 FC F8 09 0E 0F 20 C0 98 06 0E 0E 10 ...  NumBytesRead = 0xE37 (0000ms, 5661ms total)
T27C4 704:756 JLINK_SWO_Control(JLINKARM_SWO_CMD_FLUSH, ...)  returns 0x00 (0000ms, 5661ms total)
T27C4 704:756 JLINK_IsHalted()  returns FALSE (0000ms, 5661ms total)
T27C4 704:857 JLINK_SWO_Read(..., Offset = 0x00, NumBytes = 0x400000) - Data: 0E 0F 10 C0 94 89 0A 0E 0F 20 C0 98 06 0E 0E 10 ...  NumBytesRead = 0xE0F (0000ms, 5661ms total)
T27C4 704:857 JLINK_SWO_Control(JLINKARM_SWO_CMD_FLUSH, ...)  returns 0x00 (0000ms, 5661ms total)
T27C4 704:857 JLINK_ReadMemU32(0xE0001004, 0x0001 Items, ...) -- CPU_ReadMem(4 bytes @ 0xE0001004) - Data: 4B 57 0D 05  returns 1 (0000ms, 5661ms total)
T3EEC 704:857 JLINK_ReadMemEx(0x20008598, 0x016E Bytes, ..., Flags = 0x02000000) -- CPU_ReadMem(366 bytes @ 0x20008598) - Data: 68 65 6C 6C 6F 20 77 6F 72 6C 64 0A 00 68 65 6C ...  returns 0x16E (0003ms, 5664ms total)
T27C4 704:862 JLINK_IsHalted()  returns FALSE (0000ms, 5664ms total)
T27C4 704:964 JLINK_SWO_Read(..., Offset = 0x00, NumBytes = 0x400000) - Data: 0E 0F 10 C0 90 89 0A 0E 0F 20 C0 98 06 0E 0E 10 ...  NumBytesRead = 0xF48 (0000ms, 5664ms total)
T27C4 704:964 JLINK_SWO_Control(JLINKARM_SWO_CMD_FLUSH, ...)  returns 0x00 (0000ms, 5664ms total)
T27C4 704:964 JLINK_IsHalted()  returns FALSE (0000ms, 5664ms total)
T27C4 705:065 JLINK_SWO_Read(..., Offset = 0x00, NumBytes = 0x400000) - Data: 0E 0F 10 C0 8D 89 0A 0E 0F 20 C0 99 06 0E 0E 10 ...  NumBytesRead = 0xDA6 (0000ms, 5664ms total)
T27C4 705:065 JLINK_SWO_Control(JLINKARM_SWO_CMD_FLUSH, ...)  returns 0x00 (0000ms, 5664ms total)
T27C4 705:065 JLINK_IsHalted()  returns FALSE (0000ms, 5664ms total)
T27C4 705:167 JLINK_SWO_Read(..., Offset = 0x00, NumBytes = 0x400000) - Data: 0E 0F 10 C0 9F 89 0A 0E 0F 20 C0 98 06 0E 0E 10 ...  NumBytesRead = 0xEC2 (0000ms, 5664ms total)
T27C4 705:167 JLINK_SWO_Control(JLINKARM_SWO_CMD_FLUSH, ...)  returns 0x00 (0000ms, 5664ms total)
T27C4 705:167 JLINK_IsHalted()  returns FALSE (0001ms, 5665ms total)
T27C4 705:269 JLINK_SWO_Read(..., Offset = 0x00, NumBytes = 0x400000) - Data: 0E 0F 10 C0 93 89 0A 0E 0F 20 C0 98 06 0E 0E 10 ...  NumBytesRead = 0xE40 (0000ms, 5664ms total)
T27C4 705:269 JLINK_SWO_Control(JLINKARM_SWO_CMD_FLUSH, ...)  returns 0x00 (0000ms, 5664ms total)
T27C4 705:269 JLINK_IsHalted()  returns FALSE (0000ms, 5664ms total)
T27C4 705:370 JLINK_SWO_Read(..., Offset = 0x00, NumBytes = 0x400000) - Data: 0E 36 10 C0 F3 88 06 0E 36 20 C0 92 2B 0E 0E 10 ...  NumBytesRead = 0xEA4 (0000ms, 5664ms total)
T27C4 705:370 JLINK_SWO_Control(JLINKARM_SWO_CMD_FLUSH, ...)  returns 0x00 (0000ms, 5664ms total)
T27C4 705:370 JLINK_ReadMemU32(0xE0001004, 0x0001 Items, ...) - Data: 4B 57 0D 05  returns 1 (0000ms, 5664ms total)
T3EEC 705:370 JLINK_ReadMemEx(0x20008598, 0x016E Bytes, ..., Flags = 0x02000000) -- CPU_ReadMem(366 bytes @ 0x20008598) - Data: 68 65 6C 6C 6F 20 77 6F 72 6C 64 0A 00 68 65 6C ...  returns 0x16E (0002ms, 5666ms total)
T27C4 705:375 JLINK_IsHalted()  returns FALSE (0000ms, 5666ms total)
T27C4 705:476 JLINK_SWO_Read(..., Offset = 0x00, NumBytes = 0x400000) - Data: 0E 0F 10 C0 9D 89 0A 0E 0F 20 C0 98 06 0E 0E 10 ...  NumBytesRead = 0xF16 (0000ms, 5666ms total)
T27C4 705:476 JLINK_SWO_Control(JLINKARM_SWO_CMD_FLUSH, ...)  returns 0x00 (0000ms, 5666ms total)
T27C4 705:476 JLINK_IsHalted()  returns FALSE (0000ms, 5666ms total)
T27C4 705:578 JLINK_SWO_Read(..., Offset = 0x00, NumBytes = 0x400000) - Data: 0E 0F 10 C0 89 F9 09 0E 0F 20 C0 98 06 0E 0E 10 ...  NumBytesRead = 0xE2E (0000ms, 5666ms total)
T27C4 705:578 JLINK_SWO_Control(JLINKARM_SWO_CMD_FLUSH, ...)  returns 0x00 (0000ms, 5666ms total)
T27C4 705:578 JLINK_IsHalted()  returns FALSE (0000ms, 5666ms total)
T27C4 705:679 JLINK_SWO_Read(..., Offset = 0x00, NumBytes = 0x400000) - Data: 0E 0F 10 C0 83 89 0A 0E 0F 20 C0 98 06 0E 0E 10 ...  NumBytesRead = 0xE18 (0000ms, 5666ms total)
T27C4 705:679 JLINK_SWO_Control(JLINKARM_SWO_CMD_FLUSH, ...)  returns 0x00 (0000ms, 5666ms total)
T27C4 705:679 JLINK_IsHalted()  returns FALSE (0000ms, 5666ms total)
T27C4 705:780 JLINK_SWO_Read(..., Offset = 0x00, NumBytes = 0x400000) - Data: 0E 0F 10 C0 9F 89 0A 0E 0F 20 C0 98 06 0E 0E 10 ...  NumBytesRead = 0xE6C (0000ms, 5666ms total)
T27C4 705:780 JLINK_SWO_Control(JLINKARM_SWO_CMD_FLUSH, ...)  returns 0x00 (0000ms, 5666ms total)
T27C4 705:780 JLINK_IsHalted()  returns FALSE (0000ms, 5666ms total)
T27C4 705:881 JLINK_SWO_Read(..., Offset = 0x00, NumBytes = 0x400000) - Data: 0E 0F 10 C0 91 89 0A 0E 0F 20 C0 98 06 0E 0E 10 ...  NumBytesRead = 0xDF6 (0000ms, 5666ms total)
T27C4 705:881 JLINK_SWO_Control(JLINKARM_SWO_CMD_FLUSH, ...)  returns 0x00 (0000ms, 5666ms total)
T27C4 705:881 JLINK_IsHalted()  returns FALSE (0000ms, 5666ms total)
T27C4 705:981 JLINK_SWO_Read(..., Offset = 0x00, NumBytes = 0x400000) - Data: 0E 0F 10 C0 94 89 0A 0E 0F 20 C0 98 06 0E 0E 10 ...  NumBytesRead = 0xE76 (0000ms, 5666ms total)
T27C4 705:981 JLINK_SWO_Control(JLINKARM_SWO_CMD_FLUSH, ...)  returns 0x00 (0000ms, 5666ms total)
T27C4 705:981 JLINK_ReadMemU32(0xE0001004, 0x0001 Items, ...) - Data: 4B 57 0D 05  returns 1 (0000ms, 5666ms total)
T3EEC 705:981 JLINK_ReadMemEx(0x20008598, 0x016E Bytes, ..., Flags = 0x02000000) -- CPU_ReadMem(366 bytes @ 0x20008598) - Data: 68 65 6C 6C 6F 20 77 6F 72 6C 64 0A 00 68 65 6C ...  returns 0x16E (0002ms, 5668ms total)
T27C4 705:988 JLINK_IsHalted()  returns FALSE (0000ms, 5668ms total)
T27C4 706:089 JLINK_SWO_Read(..., Offset = 0x00, NumBytes = 0x400000) - Data: 0E 0F 10 C0 97 89 0A 0E 0F 20 C0 98 06 0E 0E 10 ...  NumBytesRead = 0xEFD (0000ms, 5668ms total)
T27C4 706:089 JLINK_SWO_Control(JLINKARM_SWO_CMD_FLUSH, ...)  returns 0x00 (0000ms, 5668ms total)
T27C4 706:089 JLINK_IsHalted()  returns FALSE (0000ms, 5668ms total)
T27C4 706:190 JLINK_SWO_Read(..., Offset = 0x00, NumBytes = 0x400000) - Data: 0E 0F 10 C0 9C 89 0A 0E 0F 20 C0 98 06 0E 0E 10 ...  NumBytesRead = 0xE31 (0000ms, 5668ms total)
T27C4 706:190 JLINK_SWO_Control(JLINKARM_SWO_CMD_FLUSH, ...)  returns 0x00 (0000ms, 5668ms total)
T27C4 706:191 JLINK_IsHalted()  returns FALSE (0001ms, 5669ms total)
T27C4 706:293 JLINK_SWO_Read(..., Offset = 0x00, NumBytes = 0x400000) - Data: 0E 0F 10 C0 9F 89 0A 0E 0F 20 C0 98 06 0E 0E 10 ...  NumBytesRead = 0xE53 (0000ms, 5668ms total)
T27C4 706:293 JLINK_SWO_Control(JLINKARM_SWO_CMD_FLUSH, ...)  returns 0x00 (0000ms, 5668ms total)
T27C4 706:293 JLINK_IsHalted()  returns FALSE (0001ms, 5669ms total)
T27C4 706:394 JLINK_SWO_Read(..., Offset = 0x00, NumBytes = 0x400000) - Data: 0E 0F 10 C0 93 89 0A 0E 0F 20 C0 98 06 0E 0E 10 ...  NumBytesRead = 0xE7B (0000ms, 5668ms total)
T27C4 706:394 JLINK_SWO_Control(JLINKARM_SWO_CMD_FLUSH, ...)  returns 0x00 (0000ms, 5668ms total)
T27C4 706:394 JLINK_IsHalted()  returns FALSE (0000ms, 5668ms total)
T27C4 706:496 JLINK_SWO_Read(..., Offset = 0x00, NumBytes = 0x400000) - Data: 0E 0F 10 C0 8F 89 0A 0E 0F 20 C0 98 06 0E 0E 10 ...  NumBytesRead = 0xE57 (0000ms, 5668ms total)
T27C4 706:496 JLINK_SWO_Control(JLINKARM_SWO_CMD_FLUSH, ...)  returns 0x00 (0000ms, 5668ms total)
T27C4 706:496 JLINK_ReadMemU32(0xE0001004, 0x0001 Items, ...) - Data: 4B 57 0D 05  returns 1 (0000ms, 5668ms total)
T3EEC 706:496 JLINK_ReadMemEx(0x20008598, 0x016E Bytes, ..., Flags = 0x02000000) -- CPU_ReadMem(366 bytes @ 0x20008598) - Data: 68 65 6C 6C 6F 20 77 6F 72 6C 64 0A 00 68 65 6C ...  returns 0x16E (0002ms, 5670ms total)
T27C4 706:501 JLINK_IsHalted()  returns FALSE (0000ms, 5670ms total)
T27C4 706:602 JLINK_SWO_Read(..., Offset = 0x00, NumBytes = 0x400000) - Data: 0E 0F 10 C0 9A 89 0A 0E 0F 20 C0 98 06 0E 0E 10 ...  NumBytesRead = 0xEDB (0000ms, 5670ms total)
T27C4 706:602 JLINK_SWO_Control(JLINKARM_SWO_CMD_FLUSH, ...)  returns 0x00 (0000ms, 5670ms total)
T27C4 706:602 JLINK_IsHalted()  returns FALSE (0000ms, 5670ms total)
T27C4 706:703 JLINK_SWO_Read(..., Offset = 0x00, NumBytes = 0x400000) - Data: 0E 0F 10 C0 97 89 0A 0E 0F 20 C0 98 06 0E 0E 10 ...  NumBytesRead = 0xE31 (0000ms, 5670ms total)
T27C4 706:703 JLINK_SWO_Control(JLINKARM_SWO_CMD_FLUSH, ...)  returns 0x00 (0000ms, 5670ms total)
T27C4 706:703 JLINK_IsHalted()  returns FALSE (0000ms, 5670ms total)
T27C4 706:805 JLINK_SWO_Read(..., Offset = 0x00, NumBytes = 0x400000) - Data: 0E 0F 10 C0 9A 89 0A 0E 0F 20 C0 98 06 0E 0E 10 ...  NumBytesRead = 0xE59 (0000ms, 5670ms total)
T27C4 706:805 JLINK_SWO_Control(JLINKARM_SWO_CMD_FLUSH, ...)  returns 0x00 (0000ms, 5670ms total)
